Got 1 devices.
Added device: spice2poly
Got 0 udns.
Got 17 devices.
Added device: climit
Added device: divide
Added device: d_dt
Added device: gain
Added device: hyst
Added device: ilimit
Added device: int
Added device: limit
Added device: mult
Added device: oneshot
Added device: pwl
Added device: sine
Added device: slew
Added device: square
Added device: summer
Added device: s_xfer
Added device: triangle
Got 0 udns.
Got 26 devices.
Added device: adc_bridge
Added device: dac_bridge
Added device: d_and
Added device: d_buffer
Added device: d_dff
Added device: d_dlatch
Added device: d_fdiv
Added device: d_inverter
Added device: d_jkff
Added device: d_nand
Added device: d_nor
Added device: d_open_c
Added device: d_open_e
Added device: d_or
Added device: d_osc
Added device: d_pulldown
Added device: d_pullup
Added device: d_ram
Added device: d_source
Added device: d_srff
Added device: d_srlatch
Added device: d_state
Added device: d_tff
Added device: d_tristate
Added device: d_xnor
Added device: d_xor
Got 0 udns.
Got 9 devices.
Added device: aswitch
Added device: capacitor
Added device: cmeter
Added device: core
Added device: inductor
Added device: lcouple
Added device: lmeter
Added device: potentiometer
Added device: zener
Got 0 udns.
Got 4 devices.
Added device: d_to_real
Added device: real_delay
Added device: real_gain
Added device: real_to_v
Got 2 udns.
Added udn: int
Added udn: real

Circuit: A 5-R noise circuit

Doing analysis at TEMP = 300.150000 and TNOM = 300.150000
                              A 5-R noise circuit
                              Integrated Noise - V^2 or A^2  Tue Jan 11 00:52:35  2011
--------------------------------------------------------------------------------
Index   inoise_total    onoise_total    
--------------------------------------------------------------------------------
0	1.124378e-15	7.501597e-16	

                              A 5-R noise circuit
                              Noise Spectral Density Curves - (V^2 or A^2)/Hz  Tue Jan 11 00:52:34  2011
--------------------------------------------------------------------------------
Index   frequency       inoise_spectrum onoise_spectrum 
--------------------------------------------------------------------------------
0	1.000000e+01	1.135944e-16	3.712276e-17	
1	1.000230e+01	1.135421e-16	3.711718e-17	
2	1.000461e+01	1.134899e-16	3.711159e-17	
3	1.000691e+01	1.134376e-16	3.710600e-17	
4	1.000921e+01	1.133854e-16	3.710041e-17	
5	1.001152e+01	1.133331e-16	3.709481e-17	
6	1.001383e+01	1.132810e-16	3.708922e-17	
7	1.001613e+01	1.132288e-16	3.708363e-17	
8	1.001844e+01	1.131766e-16	3.707803e-17	
9	1.002074e+01	1.131245e-16	3.707244e-17	
10	1.002305e+01	1.130724e-16	3.706684e-17	
11	1.002536e+01	1.130204e-16	3.706124e-17	
12	1.002767e+01	1.129683e-16	3.705565e-17	
13	1.002998e+01	1.129163e-16	3.705005e-17	
14	1.003229e+01	1.128643e-16	3.704445e-17	
15	1.003460e+01	1.128123e-16	3.703885e-17	
16	1.003691e+01	1.127604e-16	3.703325e-17	
17	1.003922e+01	1.127085e-16	3.702764e-17	
18	1.004153e+01	1.126566e-16	3.702204e-17	
19	1.004384e+01	1.126047e-16	3.701644e-17	
20	1.004616e+01	1.125528e-16	3.701083e-17	
21	1.004847e+01	1.125010e-16	3.700522e-17	
22	1.005079e+01	1.124492e-16	3.699962e-17	
23	1.005310e+01	1.123974e-16	3.699401e-17	
24	1.005542e+01	1.123456e-16	3.698840e-17	
25	1.005773e+01	1.122939e-16	3.698279e-17	
26	1.006005e+01	1.122422e-16	3.697718e-17	
27	1.006236e+01	1.121905e-16	3.697157e-17	
28	1.006468e+01	1.121389e-16	3.696596e-17	
29	1.006700e+01	1.120872e-16	3.696034e-17	
30	1.006932e+01	1.120356e-16	3.695473e-17	
31	1.007164e+01	1.119840e-16	3.694911e-17	
32	1.007395e+01	1.119324e-16	3.694350e-17	
33	1.007627e+01	1.118809e-16	3.693788e-17	
34	1.007860e+01	1.118294e-16	3.693226e-17	
35	1.008092e+01	1.117779e-16	3.692665e-17	
36	1.008324e+01	1.117264e-16	3.692103e-17	
37	1.008556e+01	1.116750e-16	3.691541e-17	
38	1.008788e+01	1.116235e-16	3.690979e-17	
39	1.009021e+01	1.115721e-16	3.690416e-17	
40	1.009253e+01	1.115208e-16	3.689854e-17	
41	1.009485e+01	1.114694e-16	3.689292e-17	
42	1.009718e+01	1.114181e-16	3.688729e-17	
43	1.009950e+01	1.113668e-16	3.688167e-17	
44	1.010183e+01	1.113155e-16	3.687604e-17	
45	1.010416e+01	1.112642e-16	3.687041e-17	
46	1.010648e+01	1.112130e-16	3.686479e-17	
47	1.010881e+01	1.111618e-16	3.685916e-17	
48	1.011114e+01	1.111106e-16	3.685353e-17	
49	1.011347e+01	1.110594e-16	3.684790e-17	
50	1.011579e+01	1.110083e-16	3.684227e-17	
51	1.011812e+01	1.109572e-16	3.683663e-17	
52	1.012045e+01	1.109061e-16	3.683100e-17	
53	1.012278e+01	1.108550e-16	3.682537e-17	
54	1.012512e+01	1.108039e-16	3.681973e-17	

Index   frequency       inoise_spectrum onoise_spectrum 
--------------------------------------------------------------------------------
55	1.012745e+01	1.107529e-16	3.681410e-17	
56	1.012978e+01	1.107019e-16	3.680846e-17	
57	1.013211e+01	1.106509e-16	3.680282e-17	
58	1.013445e+01	1.106000e-16	3.679718e-17	
59	1.013678e+01	1.105491e-16	3.679154e-17	
60	1.013911e+01	1.104982e-16	3.678590e-17	
61	1.014145e+01	1.104473e-16	3.678026e-17	
62	1.014378e+01	1.103964e-16	3.677462e-17	
63	1.014612e+01	1.103456e-16	3.676898e-17	
64	1.014846e+01	1.102948e-16	3.676333e-17	
65	1.015079e+01	1.102440e-16	3.675769e-17	
66	1.015313e+01	1.101932e-16	3.675204e-17	
67	1.015547e+01	1.101425e-16	3.674640e-17	
68	1.015781e+01	1.100917e-16	3.674075e-17	
69	1.016015e+01	1.100410e-16	3.673510e-17	
70	1.016249e+01	1.099904e-16	3.672945e-17	
71	1.016483e+01	1.099397e-16	3.672380e-17	
72	1.016717e+01	1.098891e-16	3.671815e-17	
73	1.016951e+01	1.098385e-16	3.671250e-17	
74	1.017185e+01	1.097879e-16	3.670685e-17	
75	1.017419e+01	1.097374e-16	3.670120e-17	
76	1.017654e+01	1.096868e-16	3.669554e-17	
77	1.017888e+01	1.096363e-16	3.668989e-17	
78	1.018122e+01	1.095858e-16	3.668423e-17	
79	1.018357e+01	1.095354e-16	3.667857e-17	
80	1.018591e+01	1.094849e-16	3.667292e-17	
81	1.018826e+01	1.094345e-16	3.666726e-17	
82	1.019061e+01	1.093841e-16	3.666160e-17	
83	1.019295e+01	1.093337e-16	3.665594e-17	
84	1.019530e+01	1.092834e-16	3.665028e-17	
85	1.019765e+01	1.092331e-16	3.664462e-17	
86	1.020000e+01	1.091828e-16	3.663895e-17	
87	1.020234e+01	1.091325e-16	3.663329e-17	
88	1.020469e+01	1.090822e-16	3.662763e-17	
89	1.020704e+01	1.090320e-16	3.662196e-17	
90	1.020939e+01	1.089818e-16	3.661630e-17	
91	1.021175e+01	1.089316e-16	3.661063e-17	
92	1.021410e+01	1.088815e-16	3.660496e-17	
93	1.021645e+01	1.088313e-16	3.659929e-17	
94	1.021880e+01	1.087812e-16	3.659362e-17	
95	1.022116e+01	1.087311e-16	3.658795e-17	
96	1.022351e+01	1.086810e-16	3.658228e-17	
97	1.022586e+01	1.086310e-16	3.657661e-17	
98	1.022822e+01	1.085810e-16	3.657094e-17	
99	1.023057e+01	1.085310e-16	3.656526e-17	
100	1.023293e+01	1.084810e-16	3.655959e-17	
101	1.023529e+01	1.084310e-16	3.655391e-17	
102	1.023764e+01	1.083811e-16	3.654824e-17	
103	1.024000e+01	1.083312e-16	3.654256e-17	
104	1.024236e+01	1.082813e-16	3.653688e-17	
105	1.024472e+01	1.082315e-16	3.653120e-17	
106	1.024708e+01	1.081816e-16	3.652552e-17	
107	1.024944e+01	1.081318e-16	3.651984e-17	
108	1.025180e+01	1.080820e-16	3.651416e-17	
109	1.025416e+01	1.080322e-16	3.650848e-17	
110	1.025652e+01	1.079825e-16	3.650279e-17	
111	1.025888e+01	1.079328e-16	3.649711e-17	
112	1.026124e+01	1.078831e-16	3.649143e-17	

Index   frequency       inoise_spectrum onoise_spectrum 
--------------------------------------------------------------------------------
113	1.026361e+01	1.078334e-16	3.648574e-17	
114	1.026597e+01	1.077837e-16	3.648005e-17	
115	1.026833e+01	1.077341e-16	3.647437e-17	
116	1.027070e+01	1.076845e-16	3.646868e-17	
117	1.027306e+01	1.076349e-16	3.646299e-17	
118	1.027543e+01	1.075853e-16	3.645730e-17	
119	1.027780e+01	1.075358e-16	3.645161e-17	
120	1.028016e+01	1.074863e-16	3.644592e-17	
121	1.028253e+01	1.074368e-16	3.644023e-17	
122	1.028490e+01	1.073873e-16	3.643453e-17	
123	1.028727e+01	1.073379e-16	3.642884e-17	
124	1.028964e+01	1.072884e-16	3.642314e-17	
125	1.029201e+01	1.072390e-16	3.641745e-17	
126	1.029438e+01	1.071896e-16	3.641175e-17	
127	1.029675e+01	1.071403e-16	3.640605e-17	
128	1.029912e+01	1.070909e-16	3.640035e-17	
129	1.030149e+01	1.070416e-16	3.639466e-17	
130	1.030386e+01	1.069923e-16	3.638896e-17	
131	1.030623e+01	1.069431e-16	3.638325e-17	
132	1.030861e+01	1.068938e-16	3.637755e-17	
133	1.031098e+01	1.068446e-16	3.637185e-17	
134	1.031336e+01	1.067954e-16	3.636615e-17	
135	1.031573e+01	1.067462e-16	3.636044e-17	
136	1.031811e+01	1.066971e-16	3.635474e-17	
137	1.032048e+01	1.066479e-16	3.634903e-17	
138	1.032286e+01	1.065988e-16	3.634333e-17	
139	1.032524e+01	1.065497e-16	3.633762e-17	
140	1.032761e+01	1.065007e-16	3.633191e-17	
141	1.032999e+01	1.064516e-16	3.632620e-17	
142	1.033237e+01	1.064026e-16	3.632049e-17	
143	1.033475e+01	1.063536e-16	3.631478e-17	
144	1.033713e+01	1.063046e-16	3.630907e-17	
145	1.033951e+01	1.062557e-16	3.630336e-17	
146	1.034189e+01	1.062068e-16	3.629764e-17	
147	1.034427e+01	1.061578e-16	3.629193e-17	
148	1.034666e+01	1.061090e-16	3.628621e-17	
149	1.034904e+01	1.060601e-16	3.628050e-17	
150	1.035142e+01	1.060113e-16	3.627478e-17	
151	1.035381e+01	1.059624e-16	3.626906e-17	
152	1.035619e+01	1.059137e-16	3.626334e-17	
153	1.035857e+01	1.058649e-16	3.625763e-17	
154	1.036096e+01	1.058161e-16	3.625191e-17	
155	1.036335e+01	1.057674e-16	3.624618e-17	
156	1.036573e+01	1.057187e-16	3.624046e-17	
157	1.036812e+01	1.056700e-16	3.623474e-17	
158	1.037051e+01	1.056214e-16	3.622902e-17	
159	1.037290e+01	1.055727e-16	3.622329e-17	
160	1.037528e+01	1.055241e-16	3.621757e-17	
161	1.037767e+01	1.054755e-16	3.621184e-17	
162	1.038006e+01	1.054269e-16	3.620612e-17	
163	1.038245e+01	1.053784e-16	3.620039e-17	
164	1.038484e+01	1.053299e-16	3.619466e-17	
165	1.038724e+01	1.052814e-16	3.618893e-17	
166	1.038963e+01	1.052329e-16	3.618320e-17	
167	1.039202e+01	1.051844e-16	3.617747e-17	
168	1.039441e+01	1.051360e-16	3.617174e-17	
169	1.039681e+01	1.050876e-16	3.616601e-17	
170	1.039920e+01	1.050392e-16	3.616027e-17	

Index   frequency       inoise_spectrum onoise_spectrum 
--------------------------------------------------------------------------------
171	1.040160e+01	1.049908e-16	3.615454e-17	
172	1.040399e+01	1.049425e-16	3.614880e-17	
173	1.040639e+01	1.048941e-16	3.614307e-17	
174	1.040878e+01	1.048458e-16	3.613733e-17	
175	1.041118e+01	1.047976e-16	3.613159e-17	
176	1.041358e+01	1.047493e-16	3.612586e-17	
177	1.041598e+01	1.047011e-16	3.612012e-17	
178	1.041838e+01	1.046529e-16	3.611438e-17	
179	1.042077e+01	1.046047e-16	3.610864e-17	
180	1.042317e+01	1.045565e-16	3.610290e-17	
181	1.042557e+01	1.045084e-16	3.609715e-17	
182	1.042798e+01	1.044602e-16	3.609141e-17	
183	1.043038e+01	1.044121e-16	3.608567e-17	
184	1.043278e+01	1.043640e-16	3.607992e-17	
185	1.043518e+01	1.043160e-16	3.607418e-17	
186	1.043758e+01	1.042680e-16	3.606843e-17	
187	1.043999e+01	1.042199e-16	3.606268e-17	
188	1.044239e+01	1.041719e-16	3.605694e-17	
189	1.044480e+01	1.041240e-16	3.605119e-17	
190	1.044720e+01	1.040760e-16	3.604544e-17	
191	1.044961e+01	1.040281e-16	3.603969e-17	
192	1.045201e+01	1.039802e-16	3.603394e-17	
193	1.045442e+01	1.039323e-16	3.602818e-17	
194	1.045683e+01	1.038845e-16	3.602243e-17	
195	1.045924e+01	1.038366e-16	3.601668e-17	
196	1.046165e+01	1.037888e-16	3.601092e-17	
197	1.046405e+01	1.037410e-16	3.600517e-17	
198	1.046646e+01	1.036932e-16	3.599941e-17	
199	1.046887e+01	1.036455e-16	3.599365e-17	
200	1.047129e+01	1.035978e-16	3.598790e-17	
201	1.047370e+01	1.035501e-16	3.598214e-17	
202	1.047611e+01	1.035024e-16	3.597638e-17	
203	1.047852e+01	1.034547e-16	3.597062e-17	
204	1.048093e+01	1.034071e-16	3.596486e-17	
205	1.048335e+01	1.033595e-16	3.595910e-17	
206	1.048576e+01	1.033119e-16	3.595333e-17	
207	1.048818e+01	1.032643e-16	3.594757e-17	
208	1.049059e+01	1.032167e-16	3.594181e-17	
209	1.049301e+01	1.031692e-16	3.593604e-17	
210	1.049542e+01	1.031217e-16	3.593028e-17	
211	1.049784e+01	1.030742e-16	3.592451e-17	
212	1.050026e+01	1.030268e-16	3.591874e-17	
213	1.050268e+01	1.029793e-16	3.591297e-17	
214	1.050510e+01	1.029319e-16	3.590720e-17	
215	1.050751e+01	1.028845e-16	3.590143e-17	
216	1.050993e+01	1.028371e-16	3.589566e-17	
217	1.051235e+01	1.027898e-16	3.588989e-17	
218	1.051478e+01	1.027424e-16	3.588412e-17	
219	1.051720e+01	1.026951e-16	3.587835e-17	
220	1.051962e+01	1.026478e-16	3.587257e-17	
221	1.052204e+01	1.026006e-16	3.586680e-17	
222	1.052446e+01	1.025533e-16	3.586102e-17	
223	1.052689e+01	1.025061e-16	3.585525e-17	
224	1.052931e+01	1.024589e-16	3.584947e-17	
225	1.053174e+01	1.024117e-16	3.584369e-17	
226	1.053416e+01	1.023645e-16	3.583791e-17	
227	1.053659e+01	1.023174e-16	3.583214e-17	
228	1.053901e+01	1.022703e-16	3.582635e-17	

Index   frequency       inoise_spectrum onoise_spectrum 
--------------------------------------------------------------------------------
229	1.054144e+01	1.022232e-16	3.582057e-17	
230	1.054387e+01	1.021761e-16	3.581479e-17	
231	1.054630e+01	1.021291e-16	3.580901e-17	
232	1.054873e+01	1.020820e-16	3.580323e-17	
233	1.055115e+01	1.020350e-16	3.579744e-17	
234	1.055358e+01	1.019881e-16	3.579166e-17	
235	1.055602e+01	1.019411e-16	3.578587e-17	
236	1.055845e+01	1.018941e-16	3.578008e-17	
237	1.056088e+01	1.018472e-16	3.577430e-17	
238	1.056331e+01	1.018003e-16	3.576851e-17	
239	1.056574e+01	1.017535e-16	3.576272e-17	
240	1.056818e+01	1.017066e-16	3.575693e-17	
241	1.057061e+01	1.016598e-16	3.575114e-17	
242	1.057304e+01	1.016129e-16	3.574535e-17	
243	1.057548e+01	1.015662e-16	3.573956e-17	
244	1.057791e+01	1.015194e-16	3.573376e-17	
245	1.058035e+01	1.014726e-16	3.572797e-17	
246	1.058279e+01	1.014259e-16	3.572218e-17	
247	1.058522e+01	1.013792e-16	3.571638e-17	
248	1.058766e+01	1.013325e-16	3.571058e-17	
249	1.059010e+01	1.012859e-16	3.570479e-17	
250	1.059254e+01	1.012392e-16	3.569899e-17	
251	1.059498e+01	1.011926e-16	3.569319e-17	
252	1.059742e+01	1.011460e-16	3.568739e-17	
253	1.059986e+01	1.010994e-16	3.568159e-17	
254	1.060230e+01	1.010529e-16	3.567579e-17	
255	1.060474e+01	1.010063e-16	3.566999e-17	
256	1.060718e+01	1.009598e-16	3.566419e-17	
257	1.060962e+01	1.009133e-16	3.565839e-17	
258	1.061207e+01	1.008669e-16	3.565258e-17	
259	1.061451e+01	1.008204e-16	3.564678e-17	
260	1.061696e+01	1.007740e-16	3.564097e-17	
261	1.061940e+01	1.007276e-16	3.563517e-17	
262	1.062185e+01	1.006812e-16	3.562936e-17	
263	1.062429e+01	1.006348e-16	3.562355e-17	
264	1.062674e+01	1.005885e-16	3.561774e-17	
265	1.062919e+01	1.005422e-16	3.561193e-17	
266	1.063163e+01	1.004959e-16	3.560612e-17	
267	1.063408e+01	1.004496e-16	3.560031e-17	
268	1.063653e+01	1.004034e-16	3.559450e-17	
269	1.063898e+01	1.003571e-16	3.558869e-17	
270	1.064143e+01	1.003109e-16	3.558287e-17	
271	1.064388e+01	1.002647e-16	3.557706e-17	
272	1.064633e+01	1.002186e-16	3.557125e-17	
273	1.064878e+01	1.001724e-16	3.556543e-17	
274	1.065124e+01	1.001263e-16	3.555961e-17	
275	1.065369e+01	1.000802e-16	3.555380e-17	
276	1.065614e+01	1.000341e-16	3.554798e-17	
277	1.065860e+01	9.998802e-17	3.554216e-17	
278	1.066105e+01	9.994198e-17	3.553634e-17	
279	1.066351e+01	9.989596e-17	3.553052e-17	
280	1.066596e+01	9.984995e-17	3.552470e-17	
281	1.066842e+01	9.980398e-17	3.551888e-17	
282	1.067087e+01	9.975802e-17	3.551305e-17	
283	1.067333e+01	9.971208e-17	3.550723e-17	
284	1.067579e+01	9.966617e-17	3.550141e-17	
285	1.067825e+01	9.962027e-17	3.549558e-17	
286	1.068071e+01	9.957440e-17	3.548976e-17	

Index   frequency       inoise_spectrum onoise_spectrum 
--------------------------------------------------------------------------------
287	1.068317e+01	9.952855e-17	3.548393e-17	
288	1.068563e+01	9.948271e-17	3.547810e-17	
289	1.068809e+01	9.943690e-17	3.547228e-17	
290	1.069055e+01	9.939112e-17	3.546645e-17	
291	1.069301e+01	9.934535e-17	3.546062e-17	
292	1.069547e+01	9.929960e-17	3.545479e-17	
293	1.069794e+01	9.925388e-17	3.544896e-17	
294	1.070040e+01	9.920817e-17	3.544312e-17	
295	1.070286e+01	9.916249e-17	3.543729e-17	
296	1.070533e+01	9.911682e-17	3.543146e-17	
297	1.070779e+01	9.907118e-17	3.542562e-17	
298	1.071026e+01	9.902556e-17	3.541979e-17	
299	1.071273e+01	9.897996e-17	3.541395e-17	
300	1.071519e+01	9.893439e-17	3.540812e-17	
301	1.071766e+01	9.888883e-17	3.540228e-17	
302	1.072013e+01	9.884329e-17	3.539644e-17	
303	1.072260e+01	9.879778e-17	3.539060e-17	
304	1.072507e+01	9.875228e-17	3.538476e-17	
305	1.072754e+01	9.870681e-17	3.537892e-17	
306	1.073001e+01	9.866135e-17	3.537308e-17	
307	1.073248e+01	9.861592e-17	3.536724e-17	
308	1.073495e+01	9.857051e-17	3.536140e-17	
309	1.073742e+01	9.852512e-17	3.535556e-17	
310	1.073989e+01	9.847975e-17	3.534971e-17	
311	1.074237e+01	9.843441e-17	3.534387e-17	
312	1.074484e+01	9.838908e-17	3.533802e-17	
313	1.074732e+01	9.834377e-17	3.533218e-17	
314	1.074979e+01	9.829849e-17	3.532633e-17	
315	1.075227e+01	9.825322e-17	3.532048e-17	
316	1.075474e+01	9.820798e-17	3.531463e-17	
317	1.075722e+01	9.816276e-17	3.530878e-17	
318	1.075970e+01	9.811755e-17	3.530293e-17	
319	1.076217e+01	9.807237e-17	3.529708e-17	
320	1.076465e+01	9.802721e-17	3.529123e-17	
321	1.076713e+01	9.798207e-17	3.528538e-17	
322	1.076961e+01	9.793695e-17	3.527953e-17	
323	1.077209e+01	9.789186e-17	3.527367e-17	
324	1.077457e+01	9.784678e-17	3.526782e-17	
325	1.077705e+01	9.780172e-17	3.526196e-17	
326	1.077953e+01	9.775669e-17	3.525611e-17	
327	1.078202e+01	9.771167e-17	3.525025e-17	
328	1.078450e+01	9.766668e-17	3.524439e-17	
329	1.078698e+01	9.762170e-17	3.523853e-17	
330	1.078947e+01	9.757675e-17	3.523267e-17	
331	1.079195e+01	9.753182e-17	3.522681e-17	
332	1.079444e+01	9.748691e-17	3.522095e-17	
333	1.079692e+01	9.744202e-17	3.521509e-17	
334	1.079941e+01	9.739715e-17	3.520923e-17	
335	1.080190e+01	9.735230e-17	3.520337e-17	
336	1.080438e+01	9.730747e-17	3.519750e-17	
337	1.080687e+01	9.726266e-17	3.519164e-17	
338	1.080936e+01	9.721787e-17	3.518577e-17	
339	1.081185e+01	9.717310e-17	3.517991e-17	
340	1.081434e+01	9.712836e-17	3.517404e-17	
341	1.081683e+01	9.708363e-17	3.516817e-17	
342	1.081932e+01	9.703893e-17	3.516231e-17	
343	1.082181e+01	9.699424e-17	3.515644e-17	
344	1.082430e+01	9.694958e-17	3.515057e-17	

Index   frequency       inoise_spectrum onoise_spectrum 
--------------------------------------------------------------------------------
345	1.082680e+01	9.690494e-17	3.514470e-17	
346	1.082929e+01	9.686031e-17	3.513883e-17	
347	1.083178e+01	9.681571e-17	3.513296e-17	
348	1.083428e+01	9.677113e-17	3.512708e-17	
349	1.083677e+01	9.672657e-17	3.512121e-17	
350	1.083927e+01	9.668203e-17	3.511534e-17	
351	1.084177e+01	9.663751e-17	3.510946e-17	
352	1.084426e+01	9.659301e-17	3.510359e-17	
353	1.084676e+01	9.654853e-17	3.509771e-17	
354	1.084926e+01	9.650407e-17	3.509183e-17	
355	1.085176e+01	9.645963e-17	3.508595e-17	
356	1.085425e+01	9.641521e-17	3.508008e-17	
357	1.085675e+01	9.637082e-17	3.507420e-17	
358	1.085925e+01	9.632644e-17	3.506832e-17	
359	1.086175e+01	9.628208e-17	3.506244e-17	
360	1.086426e+01	9.623775e-17	3.505656e-17	
361	1.086676e+01	9.619343e-17	3.505067e-17	
362	1.086926e+01	9.614914e-17	3.504479e-17	
363	1.087176e+01	9.610486e-17	3.503891e-17	
364	1.087427e+01	9.606061e-17	3.503302e-17	
365	1.087677e+01	9.601637e-17	3.502714e-17	
366	1.087928e+01	9.597216e-17	3.502125e-17	
367	1.088178e+01	9.592797e-17	3.501537e-17	
368	1.088429e+01	9.588379e-17	3.500948e-17	
369	1.088679e+01	9.583964e-17	3.500359e-17	
370	1.088930e+01	9.579551e-17	3.499770e-17	
371	1.089181e+01	9.575140e-17	3.499181e-17	
372	1.089432e+01	9.570731e-17	3.498592e-17	
373	1.089683e+01	9.566324e-17	3.498003e-17	
374	1.089933e+01	9.561918e-17	3.497414e-17	
375	1.090184e+01	9.557515e-17	3.496825e-17	
376	1.090436e+01	9.553114e-17	3.496235e-17	
377	1.090687e+01	9.548715e-17	3.495646e-17	
378	1.090938e+01	9.544318e-17	3.495057e-17	
379	1.091189e+01	9.539923e-17	3.494467e-17	
380	1.091440e+01	9.535530e-17	3.493877e-17	
381	1.091692e+01	9.531140e-17	3.493288e-17	
382	1.091943e+01	9.526751e-17	3.492698e-17	
383	1.092195e+01	9.522364e-17	3.492108e-17	
384	1.092446e+01	9.517979e-17	3.491518e-17	
385	1.092698e+01	9.513596e-17	3.490928e-17	
386	1.092949e+01	9.509215e-17	3.490338e-17	
