Got 1 devices.
Added device: spice2poly
Got 0 udns.
Got 17 devices.
Added device: climit
Added device: divide
Added device: d_dt
Added device: gain
Added device: hyst
Added device: ilimit
Added device: int
Added device: limit
Added device: mult
Added device: oneshot
Added device: pwl
Added device: sine
Added device: slew
Added device: square
Added device: summer
Added device: s_xfer
Added device: triangle
Got 0 udns.
Got 26 devices.
Added device: adc_bridge
Added device: dac_bridge
Added device: d_and
Added device: d_buffer
Added device: d_dff
Added device: d_dlatch
Added device: d_fdiv
Added device: d_inverter
Added device: d_jkff
Added device: d_nand
Added device: d_nor
Added device: d_open_c
Added device: d_open_e
Added device: d_or
Added device: d_osc
Added device: d_pulldown
Added device: d_pullup
Added device: d_ram
Added device: d_source
Added device: d_srff
Added device: d_srlatch
Added device: d_state
Added device: d_tff
Added device: d_tristate
Added device: d_xnor
Added device: d_xor
Got 0 udns.
Got 9 devices.
Added device: aswitch
Added device: capacitor
Added device: cmeter
Added device: core
Added device: inductor
Added device: lcouple
Added device: lmeter
Added device: potentiometer
Added device: zener
Got 0 udns.
Got 4 devices.
Added device: d_to_real
Added device: real_delay
Added device: real_gain
Added device: real_to_v
Got 2 udns.
Added udn: int
Added udn: real

Circuit: A 5-R noise circuit

Doing analysis at TEMP = 300.150000 and TNOM = 300.150000
                              A 5-R noise circuit
                              Integrated Noise - V^2 or A^2  Tue Jan 11 00:11:13  2011
--------------------------------------------------------------------------------
Index   inoise_total    onoise_total    
--------------------------------------------------------------------------------
0	1.123592e-15	7.501491e-16	

                              A 5-R noise circuit
                              Noise Spectral Density Curves - (V^2 or A^2)/Hz  Tue Jan 11 00:11:13  2011
--------------------------------------------------------------------------------
Index   frequency       inoise_spectrum onoise_spectrum 
--------------------------------------------------------------------------------
0	1.000000e+01	1.135944e-16	3.712276e-17	
1	1.002305e+01	1.130724e-16	3.706684e-17	
2	1.004616e+01	1.125528e-16	3.701083e-17	
3	1.006932e+01	1.120356e-16	3.695473e-17	
4	1.009253e+01	1.115208e-16	3.689854e-17	
5	1.011579e+01	1.110083e-16	3.684227e-17	
6	1.013911e+01	1.104982e-16	3.678590e-17	
7	1.016249e+01	1.099904e-16	3.672945e-17	
8	1.018591e+01	1.094849e-16	3.667292e-17	
9	1.020939e+01	1.089818e-16	3.661630e-17	
10	1.023293e+01	1.084810e-16	3.655959e-17	
11	1.025652e+01	1.079825e-16	3.650279e-17	
12	1.028016e+01	1.074863e-16	3.644592e-17	
13	1.030386e+01	1.069923e-16	3.638896e-17	
14	1.032761e+01	1.065007e-16	3.633191e-17	
15	1.035142e+01	1.060113e-16	3.627478e-17	
16	1.037528e+01	1.055241e-16	3.621757e-17	
17	1.039920e+01	1.050392e-16	3.616027e-17	
18	1.042317e+01	1.045565e-16	3.610290e-17	
19	1.044720e+01	1.040760e-16	3.604544e-17	
20	1.047129e+01	1.035978e-16	3.598790e-17	
21	1.049542e+01	1.031217e-16	3.593028e-17	
22	1.051962e+01	1.026478e-16	3.587257e-17	
23	1.054387e+01	1.021761e-16	3.581479e-17	
24	1.056818e+01	1.017066e-16	3.575693e-17	
25	1.059254e+01	1.012392e-16	3.569899e-17	
26	1.061696e+01	1.007740e-16	3.564097e-17	
27	1.064143e+01	1.003109e-16	3.558287e-17	
28	1.066596e+01	9.984995e-17	3.552470e-17	
29	1.069055e+01	9.939112e-17	3.546645e-17	
30	1.071519e+01	9.893439e-17	3.540812e-17	
31	1.073989e+01	9.847975e-17	3.534971e-17	
32	1.076465e+01	9.802721e-17	3.529123e-17	
33	1.078947e+01	9.757675e-17	3.523267e-17	
34	1.081434e+01	9.712836e-17	3.517404e-17	
35	1.083927e+01	9.668203e-17	3.511534e-17	
36	1.086426e+01	9.623775e-17	3.505656e-17	
37	1.088930e+01	9.579551e-17	3.499770e-17	
38	1.091440e+01	9.535530e-17	3.493877e-17	
39	1.093956e+01	9.491712e-17	3.487978e-17	
40	1.096478e+01	9.448095e-17	3.482070e-17	
41	1.099006e+01	9.404679e-17	3.476156e-17	
42	1.101539e+01	9.361462e-17	3.470235e-17	
43	1.104079e+01	9.318444e-17	3.464306e-17	
44	1.106624e+01	9.275624e-17	3.458371e-17	
45	1.109175e+01	9.233000e-17	3.452428e-17	
46	1.111732e+01	9.190572e-17	3.446479e-17	
47	1.114295e+01	9.148339e-17	3.440523e-17	
48	1.116863e+01	9.106300e-17	3.434560e-17	
49	1.119438e+01	9.064455e-17	3.428590e-17	
50	1.122018e+01	9.022802e-17	3.422614e-17	
51	1.124605e+01	8.981340e-17	3.416631e-17	
52	1.127197e+01	8.940069e-17	3.410641e-17	
53	1.129796e+01	8.898987e-17	3.404645e-17	
54	1.132400e+01	8.858095e-17	3.398643e-17	

Index   frequency       inoise_spectrum onoise_spectrum 
--------------------------------------------------------------------------------
55	1.135011e+01	8.817390e-17	3.392633e-17	
56	1.137627e+01	8.776872e-17	3.386618e-17	
57	1.140250e+01	8.736541e-17	3.380596e-17	
58	1.142878e+01	8.696394e-17	3.374568e-17	
59	1.145513e+01	8.656433e-17	3.368534e-17	
60	1.148154e+01	8.616655e-17	3.362493e-17	
61	1.150800e+01	8.577060e-17	3.356447e-17	
62	1.153453e+01	8.537646e-17	3.350394e-17	
63	1.156112e+01	8.498414e-17	3.344336e-17	
64	1.158777e+01	8.459362e-17	3.338271e-17	
65	1.161449e+01	8.420490e-17	3.332201e-17	
66	1.164126e+01	8.381797e-17	3.326125e-17	
67	1.166810e+01	8.343281e-17	3.320043e-17	
68	1.169499e+01	8.304942e-17	3.313955e-17	
69	1.172195e+01	8.266779e-17	3.307861e-17	
70	1.174898e+01	8.228792e-17	3.301762e-17	
71	1.177606e+01	8.190979e-17	3.295658e-17	
72	1.180321e+01	8.153341e-17	3.289548e-17	
73	1.183042e+01	8.115875e-17	3.283432e-17	
74	1.185769e+01	8.078581e-17	3.277312e-17	
75	1.188502e+01	8.041459e-17	3.271185e-17	
76	1.191242e+01	8.004507e-17	3.265054e-17	
77	1.193988e+01	7.967725e-17	3.258917e-17	
78	1.196741e+01	7.931112e-17	3.252776e-17	
79	1.199499e+01	7.894668e-17	3.246629e-17	
80	1.202264e+01	7.858390e-17	3.240477e-17	
81	1.205036e+01	7.822280e-17	3.234320e-17	
82	1.207814e+01	7.786336e-17	3.228158e-17	
83	1.210598e+01	7.750556e-17	3.221992e-17	
84	1.213389e+01	7.714942e-17	3.215820e-17	
85	1.216186e+01	7.679490e-17	3.209644e-17	
86	1.218990e+01	7.644202e-17	3.203463e-17	
87	1.221800e+01	7.609076e-17	3.197278e-17	
88	1.224616e+01	7.574111e-17	3.191088e-17	
89	1.227439e+01	7.539308e-17	3.184894e-17	
90	1.230269e+01	7.504664e-17	3.178695e-17	
91	1.233105e+01	7.470179e-17	3.172492e-17	
92	1.235947e+01	7.435852e-17	3.166284e-17	
93	1.238797e+01	7.401684e-17	3.160073e-17	
94	1.241652e+01	7.367672e-17	3.153857e-17	
95	1.244515e+01	7.333817e-17	3.147637e-17	
96	1.247384e+01	7.300118e-17	3.141413e-17	
97	1.250259e+01	7.266573e-17	3.135185e-17	
98	1.253141e+01	7.233182e-17	3.128953e-17	
99	1.256030e+01	7.199945e-17	3.122717e-17	
100	1.258925e+01	7.166861e-17	3.116477e-17	
101	1.261828e+01	7.133928e-17	3.110234e-17	
102	1.264736e+01	7.101147e-17	3.103986e-17	
103	1.267652e+01	7.068517e-17	3.097736e-17	
104	1.270574e+01	7.036036e-17	3.091481e-17	
105	1.273503e+01	7.003705e-17	3.085224e-17	
106	1.276439e+01	6.971523e-17	3.078963e-17	
107	1.279381e+01	6.939488e-17	3.072698e-17	
108	1.282331e+01	6.907601e-17	3.066430e-17	
109	1.285287e+01	6.875860e-17	3.060159e-17	
110	1.288250e+01	6.844265e-17	3.053885e-17	
111	1.291219e+01	6.812815e-17	3.047607e-17	
112	1.294196e+01	6.781509e-17	3.041327e-17	

Index   frequency       inoise_spectrum onoise_spectrum 
--------------------------------------------------------------------------------
113	1.297179e+01	6.750348e-17	3.035044e-17	
114	1.300170e+01	6.719330e-17	3.028757e-17	
115	1.303167e+01	6.688454e-17	3.022468e-17	
116	1.306171e+01	6.657720e-17	3.016176e-17	
117	1.309182e+01	6.627128e-17	3.009882e-17	
118	1.312200e+01	6.596676e-17	3.003584e-17	
119	1.315225e+01	6.566364e-17	2.997284e-17	
120	1.318257e+01	6.536191e-17	2.990982e-17	
121	1.321296e+01	6.506157e-17	2.984677e-17	
122	1.324342e+01	6.476261e-17	2.978370e-17	
123	1.327394e+01	6.446502e-17	2.972060e-17	
124	1.330454e+01	6.416880e-17	2.965748e-17	
125	1.333521e+01	6.387394e-17	2.959434e-17	
126	1.336596e+01	6.358044e-17	2.953118e-17	
127	1.339677e+01	6.328829e-17	2.946800e-17	
128	1.342765e+01	6.299747e-17	2.940480e-17	
129	1.345860e+01	6.270800e-17	2.934158e-17	
130	1.348963e+01	6.241985e-17	2.927833e-17	
131	1.352073e+01	6.213303e-17	2.921508e-17	
132	1.355189e+01	6.184753e-17	2.915180e-17	
133	1.358313e+01	6.156334e-17	2.908851e-17	
134	1.361445e+01	6.128046e-17	2.902520e-17	
135	1.364583e+01	6.099887e-17	2.896188e-17	
136	1.367729e+01	6.071858e-17	2.889854e-17	
137	1.370882e+01	6.043958e-17	2.883518e-17	
138	1.374042e+01	6.016186e-17	2.877182e-17	
139	1.377209e+01	5.988541e-17	2.870844e-17	
140	1.380384e+01	5.961024e-17	2.864505e-17	
141	1.383566e+01	5.933633e-17	2.858165e-17	
142	1.386756e+01	5.906368e-17	2.851824e-17	
143	1.389953e+01	5.879228e-17	2.845481e-17	
144	1.393157e+01	5.852213e-17	2.839138e-17	
145	1.396368e+01	5.825322e-17	2.832794e-17	
146	1.399587e+01	5.798555e-17	2.826449e-17	
147	1.402814e+01	5.771911e-17	2.820104e-17	
148	1.406048e+01	5.745389e-17	2.813757e-17	
149	1.409289e+01	5.718989e-17	2.807411e-17	
150	1.412538e+01	5.692710e-17	2.801063e-17	
151	1.415794e+01	5.666552e-17	2.794715e-17	
152	1.419058e+01	5.640514e-17	2.788367e-17	
153	1.422329e+01	5.614596e-17	2.782019e-17	
154	1.425608e+01	5.588797e-17	2.775670e-17	
155	1.428894e+01	5.563117e-17	2.769321e-17	
156	1.432188e+01	5.537555e-17	2.762972e-17	
157	1.435489e+01	5.512110e-17	2.756622e-17	
158	1.438799e+01	5.486782e-17	2.750273e-17	
159	1.442115e+01	5.461570e-17	2.743924e-17	
160	1.445440e+01	5.436474e-17	2.737575e-17	
161	1.448772e+01	5.411494e-17	2.731226e-17	
162	1.452112e+01	5.386628e-17	2.724878e-17	
163	1.455459e+01	5.361877e-17	2.718530e-17	
164	1.458814e+01	5.337239e-17	2.712182e-17	
165	1.462177e+01	5.312715e-17	2.705835e-17	
166	1.465548e+01	5.288303e-17	2.699488e-17	
167	1.468926e+01	5.264004e-17	2.693142e-17	
168	1.472313e+01	5.239816e-17	2.686797e-17	
169	1.475707e+01	5.215739e-17	2.680452e-17	
170	1.479108e+01	5.191773e-17	2.674108e-17	

Index   frequency       inoise_spectrum onoise_spectrum 
--------------------------------------------------------------------------------
171	1.482518e+01	5.167917e-17	2.667765e-17	
172	1.485936e+01	5.144171e-17	2.661423e-17	
173	1.489361e+01	5.120534e-17	2.655082e-17	
174	1.492794e+01	5.097005e-17	2.648742e-17	
175	1.496236e+01	5.073585e-17	2.642403e-17	
176	1.499685e+01	5.050272e-17	2.636066e-17	
177	1.503142e+01	5.027066e-17	2.629730e-17	
178	1.506607e+01	5.003967e-17	2.623395e-17	
179	1.510080e+01	4.980974e-17	2.617061e-17	
180	1.513561e+01	4.958087e-17	2.610729e-17	
181	1.517050e+01	4.935305e-17	2.604399e-17	
182	1.520548e+01	4.912627e-17	2.598070e-17	
183	1.524053e+01	4.890054e-17	2.591743e-17	
184	1.527566e+01	4.867585e-17	2.585417e-17	
185	1.531087e+01	4.845219e-17	2.579094e-17	
186	1.534617e+01	4.822955e-17	2.572772e-17	
187	1.538155e+01	4.800794e-17	2.566452e-17	
188	1.541700e+01	4.778735e-17	2.560135e-17	
189	1.545254e+01	4.756777e-17	2.553819e-17	
190	1.548817e+01	4.734920e-17	2.547505e-17	
191	1.552387e+01	4.713163e-17	2.541194e-17	
192	1.555966e+01	4.691507e-17	2.534885e-17	
193	1.559553e+01	4.669950e-17	2.528578e-17	
194	1.563148e+01	4.648492e-17	2.522274e-17	
195	1.566751e+01	4.627132e-17	2.515972e-17	
196	1.570363e+01	4.605871e-17	2.509673e-17	
197	1.573983e+01	4.584707e-17	2.503377e-17	
198	1.577611e+01	4.563641e-17	2.497083e-17	
199	1.581248e+01	4.542672e-17	2.490791e-17	
200	1.584893e+01	4.521799e-17	2.484503e-17	
201	1.588547e+01	4.501021e-17	2.478217e-17	
202	1.592209e+01	4.480340e-17	2.471935e-17	
203	1.595879e+01	4.459753e-17	2.465655e-17	
204	1.599558e+01	4.439261e-17	2.459379e-17	
205	1.603245e+01	4.418863e-17	2.453105e-17	
206	1.606941e+01	4.398559e-17	2.446835e-17	
207	1.610646e+01	4.378348e-17	2.440568e-17	
208	1.614359e+01	4.358230e-17	2.434304e-17	
209	1.618080e+01	4.338204e-17	2.428044e-17	
210	1.621810e+01	4.318270e-17	2.421787e-17	
211	1.625549e+01	4.298428e-17	2.415534e-17	
212	1.629296e+01	4.278678e-17	2.409284e-17	
213	1.633052e+01	4.259018e-17	2.403038e-17	
214	1.636817e+01	4.239448e-17	2.396795e-17	
215	1.640590e+01	4.219968e-17	2.390556e-17	
216	1.644372e+01	4.200578e-17	2.384321e-17	
217	1.648162e+01	4.181277e-17	2.378090e-17	
218	1.651962e+01	4.162064e-17	2.371863e-17	
219	1.655770e+01	4.142940e-17	2.365640e-17	
220	1.659587e+01	4.123904e-17	2.359421e-17	
221	1.663413e+01	4.104955e-17	2.353207e-17	
222	1.667247e+01	4.086093e-17	2.346996e-17	
223	1.671091e+01	4.067318e-17	2.340789e-17	
224	1.674943e+01	4.048629e-17	2.334587e-17	
225	1.678804e+01	4.030027e-17	2.328390e-17	
226	1.682674e+01	4.011509e-17	2.322196e-17	
227	1.686553e+01	3.993077e-17	2.316008e-17	
228	1.690441e+01	3.974729e-17	2.309823e-17	

Index   frequency       inoise_spectrum onoise_spectrum 
--------------------------------------------------------------------------------
229	1.694338e+01	3.956466e-17	2.303644e-17	
230	1.698244e+01	3.938286e-17	2.297469e-17	
231	1.702159e+01	3.920190e-17	2.291299e-17	
232	1.706082e+01	3.902178e-17	2.285133e-17	
233	1.710015e+01	3.884248e-17	2.278973e-17	
234	1.713957e+01	3.866400e-17	2.272817e-17	
235	1.717908e+01	3.848635e-17	2.266667e-17	
236	1.721869e+01	3.830951e-17	2.260521e-17	
237	1.725838e+01	3.813348e-17	2.254381e-17	
238	1.729816e+01	3.795826e-17	2.248245e-17	
239	1.733804e+01	3.778385e-17	2.242115e-17	
240	1.737801e+01	3.761024e-17	2.235990e-17	
241	1.741807e+01	3.743743e-17	2.229871e-17	
242	1.745822e+01	3.726541e-17	2.223757e-17	
243	1.749847e+01	3.709418e-17	2.217648e-17	
244	1.753881e+01	3.692374e-17	2.211545e-17	
245	1.757924e+01	3.675408e-17	2.205448e-17	
246	1.761976e+01	3.658520e-17	2.199356e-17	
247	1.766038e+01	3.641709e-17	2.193269e-17	
248	1.770109e+01	3.624976e-17	2.187189e-17	
249	1.774189e+01	3.608320e-17	2.181114e-17	
250	1.778279e+01	3.591741e-17	2.175045e-17	
251	1.782379e+01	3.575237e-17	2.168982e-17	
252	1.786488e+01	3.558810e-17	2.162925e-17	
253	1.790606e+01	3.542457e-17	2.156874e-17	
254	1.794734e+01	3.526180e-17	2.150829e-17	
255	1.798871e+01	3.509978e-17	2.144790e-17	
256	1.803018e+01	3.493850e-17	2.138757e-17	
257	1.807174e+01	3.477797e-17	2.132731e-17	
258	1.811340e+01	3.461817e-17	2.126711e-17	
259	1.815516e+01	3.445910e-17	2.120697e-17	
260	1.819701e+01	3.430077e-17	2.114689e-17	
261	1.823896e+01	3.414316e-17	2.108688e-17	
262	1.828100e+01	3.398628e-17	2.102694e-17	
263	1.832314e+01	3.383012e-17	2.096706e-17	
264	1.836538e+01	3.367468e-17	2.090725e-17	
265	1.840772e+01	3.351995e-17	2.084750e-17	
266	1.845015e+01	3.336593e-17	2.078782e-17	
267	1.849269e+01	3.321262e-17	2.072821e-17	
268	1.853532e+01	3.306001e-17	2.066866e-17	
269	1.857804e+01	3.290811e-17	2.060919e-17	
270	1.862087e+01	3.275690e-17	2.054978e-17	
271	1.866380e+01	3.260639e-17	2.049044e-17	
272	1.870682e+01	3.245657e-17	2.043118e-17	
273	1.874995e+01	3.230744e-17	2.037198e-17	
274	1.879317e+01	3.215899e-17	2.031286e-17	
275	1.883649e+01	3.201123e-17	2.025380e-17	
276	1.887991e+01	3.186414e-17	2.019482e-17	
277	1.892344e+01	3.171773e-17	2.013591e-17	
278	1.896706e+01	3.157200e-17	2.007708e-17	
279	1.901078e+01	3.142693e-17	2.001832e-17	
280	1.905461e+01	3.128253e-17	1.995963e-17	
281	1.909853e+01	3.113879e-17	1.990102e-17	
282	1.914256e+01	3.099571e-17	1.984248e-17	
283	1.918669e+01	3.085330e-17	1.978402e-17	
284	1.923092e+01	3.071153e-17	1.972563e-17	
285	1.927525e+01	3.057042e-17	1.966732e-17	
286	1.931968e+01	3.042995e-17	1.960909e-17	

Index   frequency       inoise_spectrum onoise_spectrum 
--------------------------------------------------------------------------------
287	1.936422e+01	3.029013e-17	1.955093e-17	
288	1.940886e+01	3.015096e-17	1.949285e-17	
289	1.945360e+01	3.001242e-17	1.943486e-17	
290	1.949845e+01	2.987452e-17	1.937693e-17	
291	1.954339e+01	2.973725e-17	1.931909e-17	
292	1.958845e+01	2.960061e-17	1.926133e-17	
293	1.963360e+01	2.946461e-17	1.920365e-17	
294	1.967886e+01	2.932922e-17	1.914605e-17	
295	1.972423e+01	2.919446e-17	1.908853e-17	
296	1.976970e+01	2.906032e-17	1.903109e-17	
297	1.981527e+01	2.892679e-17	1.897374e-17	
298	1.986095e+01	2.879388e-17	1.891646e-17	
299	1.990673e+01	2.866158e-17	1.885927e-17	
300	1.995262e+01	2.852988e-17	1.880216e-17	
301	1.999862e+01	2.839880e-17	1.874514e-17	
302	2.004472e+01	2.826831e-17	1.868820e-17	
303	2.009093e+01	2.813842e-17	1.863134e-17	
304	2.013724e+01	2.800913e-17	1.857457e-17	
305	2.018366e+01	2.788044e-17	1.851788e-17	
306	2.023019e+01	2.775233e-17	1.846128e-17	
307	2.027683e+01	2.762482e-17	1.840477e-17	
308	2.032357e+01	2.749789e-17	1.834834e-17	
309	2.037042e+01	2.737154e-17	1.829200e-17	
310	2.041738e+01	2.724577e-17	1.823575e-17	
311	2.046445e+01	2.712059e-17	1.817958e-17	
312	2.051162e+01	2.699597e-17	1.812350e-17	
313	2.055891e+01	2.687193e-17	1.806751e-17	
314	2.060630e+01	2.674846e-17	1.801161e-17	
315	2.065380e+01	2.662556e-17	1.795580e-17	
316	2.070141e+01	2.650322e-17	1.790008e-17	
317	2.074914e+01	2.638144e-17	1.784445e-17	
318	2.079697e+01	2.626023e-17	1.778891e-17	
319	2.084491e+01	2.613957e-17	1.773346e-17	
320	2.089296e+01	2.601946e-17	1.767810e-17	
321	2.094112e+01	2.589991e-17	1.762283e-17	
322	2.098940e+01	2.578090e-17	1.756765e-17	
323	2.103778e+01	2.566245e-17	1.751257e-17	
324	2.108628e+01	2.554453e-17	1.745758e-17	
325	2.113489e+01	2.542716e-17	1.740268e-17	
326	2.118361e+01	2.531033e-17	1.734787e-17	
327	2.123244e+01	2.519404e-17	1.729316e-17	
328	2.128139e+01	2.507828e-17	1.723854e-17	
329	2.133045e+01	2.496305e-17	1.718402e-17	
330	2.137962e+01	2.484835e-17	1.712959e-17	
331	2.142891e+01	2.473418e-17	1.707525e-17	
332	2.147830e+01	2.462053e-17	1.702101e-17	
333	2.152782e+01	2.450740e-17	1.696687e-17	
334	2.157744e+01	2.439480e-17	1.691282e-17	
335	2.162719e+01	2.428271e-17	1.685887e-17	
336	2.167704e+01	2.417114e-17	1.680501e-17	
337	2.172701e+01	2.406008e-17	1.675125e-17	
338	2.177710e+01	2.394953e-17	1.669759e-17	
339	2.182730e+01	2.383948e-17	1.664402e-17	
340	2.187762e+01	2.372995e-17	1.659056e-17	
341	2.192805e+01	2.362091e-17	1.653719e-17	
342	2.197860e+01	2.351238e-17	1.648392e-17	
343	2.202926e+01	2.340435e-17	1.643075e-17	
344	2.208005e+01	2.329681e-17	1.637767e-17	

Index   frequency       inoise_spectrum onoise_spectrum 
--------------------------------------------------------------------------------
345	2.213095e+01	2.318977e-17	1.632470e-17	
346	2.218196e+01	2.308322e-17	1.627182e-17	
347	2.223310e+01	2.297716e-17	1.621905e-17	
348	2.228435e+01	2.287158e-17	1.616637e-17	
349	2.233572e+01	2.276649e-17	1.611380e-17	
350	2.238721e+01	2.266189e-17	1.606133e-17	
351	2.243882e+01	2.255776e-17	1.600895e-17	
352	2.249055e+01	2.245411e-17	1.595668e-17	
353	2.254239e+01	2.235094e-17	1.590451e-17	
354	2.259436e+01	2.224825e-17	1.585244e-17	
355	2.264644e+01	2.214602e-17	1.580047e-17	
356	2.269865e+01	2.204427e-17	1.574861e-17	
357	2.275097e+01	2.194298e-17	1.569684e-17	
358	2.280342e+01	2.184216e-17	1.564518e-17	
359	2.285599e+01	2.174180e-17	1.559363e-17	
360	2.290868e+01	2.164190e-17	1.554217e-17	
361	2.296149e+01	2.154246e-17	1.549082e-17	
362	2.301442e+01	2.144348e-17	1.543957e-17	
363	2.306747e+01	2.134495e-17	1.538843e-17	
364	2.312065e+01	2.124688e-17	1.533739e-17	
365	2.317395e+01	2.114925e-17	1.528645e-17	
366	2.322737e+01	2.105208e-17	1.523562e-17	
367	2.328091e+01	2.095535e-17	1.518489e-17	
368	2.333458e+01	2.085907e-17	1.513427e-17	
369	2.338837e+01	2.076322e-17	1.508376e-17	
370	2.344229e+01	2.066782e-17	1.503334e-17	
371	2.349633e+01	2.057286e-17	1.498304e-17	
372	2.355049e+01	2.047833e-17	1.493284e-17	
373	2.360478e+01	2.038424e-17	1.488274e-17	
374	2.365920e+01	2.029058e-17	1.483276e-17	
375	2.371374e+01	2.019735e-17	1.478287e-17	
376	2.376840e+01	2.010455e-17	1.473310e-17	
377	2.382319e+01	2.001217e-17	1.468343e-17	
378	2.387811e+01	1.992022e-17	1.463387e-17	
379	2.393316e+01	1.982870e-17	1.458441e-17	
380	2.398833e+01	1.973759e-17	1.453506e-17	
381	2.404363e+01	1.964690e-17	1.448582e-17	
382	2.409905e+01	1.955663e-17	1.443669e-17	
383	2.415461e+01	1.946677e-17	1.438766e-17	
384	2.421029e+01	1.937733e-17	1.433874e-17	
385	2.426610e+01	1.928829e-17	1.428993e-17	
386	2.432204e+01	1.919967e-17	1.424123e-17	
