Got 1 devices.
Added device: spice2poly
Got 0 udns.
Got 17 devices.
Added device: climit
Added device: divide
Added device: d_dt
Added device: gain
Added device: hyst
Added device: ilimit
Added device: int
Added device: limit
Added device: mult
Added device: oneshot
Added device: pwl
Added device: sine
Added device: slew
Added device: square
Added device: summer
Added device: s_xfer
Added device: triangle
Got 0 udns.
Got 26 devices.
Added device: adc_bridge
Added device: dac_bridge
Added device: d_and
Added device: d_buffer
Added device: d_dff
Added device: d_dlatch
Added device: d_fdiv
Added device: d_inverter
Added device: d_jkff
Added device: d_nand
Added device: d_nor
Added device: d_open_c
Added device: d_open_e
Added device: d_or
Added device: d_osc
Added device: d_pulldown
Added device: d_pullup
Added device: d_ram
Added device: d_source
Added device: d_srff
Added device: d_srlatch
Added device: d_state
Added device: d_tff
Added device: d_tristate
Added device: d_xnor
Added device: d_xor
Got 0 udns.
Got 9 devices.
Added device: aswitch
Added device: capacitor
Added device: cmeter
Added device: core
Added device: inductor
Added device: lcouple
Added device: lmeter
Added device: potentiometer
Added device: zener
Got 0 udns.
Got 4 devices.
Added device: d_to_real
Added device: real_delay
Added device: real_gain
Added device: real_to_v
Got 2 udns.
Added udn: int
Added udn: real

Circuit: A 5-R noise circuit

Doing analysis at TEMP = 300.150000 and TNOM = 300.150000
                              A 5-R noise circuit
                              Integrated Noise - V^2 or A^2  Tue Jan 11 00:11:51  2011
--------------------------------------------------------------------------------
Index   inoise_total    onoise_total    
--------------------------------------------------------------------------------
0	1.115865e-15	7.501296e-16	

                              A 5-R noise circuit
                              Noise Spectral Density Curves - (V^2 or A^2)/Hz  Tue Jan 11 00:11:51  2011
--------------------------------------------------------------------------------
Index   frequency       inoise_spectrum onoise_spectrum 
--------------------------------------------------------------------------------
0	1.000000e+01	1.135944e-16	3.712276e-17	
1	1.023293e+01	1.084810e-16	3.655959e-17	
2	1.047129e+01	1.035978e-16	3.598790e-17	
3	1.071519e+01	9.893439e-17	3.540812e-17	
4	1.096478e+01	9.448095e-17	3.482070e-17	
5	1.122018e+01	9.022802e-17	3.422614e-17	
6	1.148154e+01	8.616655e-17	3.362493e-17	
7	1.174898e+01	8.228792e-17	3.301762e-17	
8	1.202264e+01	7.858390e-17	3.240477e-17	
9	1.230269e+01	7.504664e-17	3.178695e-17	
10	1.258925e+01	7.166861e-17	3.116477e-17	
11	1.288250e+01	6.844265e-17	3.053885e-17	
12	1.318257e+01	6.536191e-17	2.990982e-17	
13	1.348963e+01	6.241985e-17	2.927833e-17	
14	1.380384e+01	5.961024e-17	2.864505e-17	
15	1.412538e+01	5.692710e-17	2.801063e-17	
16	1.445440e+01	5.436474e-17	2.737575e-17	
17	1.479108e+01	5.191773e-17	2.674108e-17	
18	1.513561e+01	4.958087e-17	2.610729e-17	
19	1.548817e+01	4.734920e-17	2.547505e-17	
20	1.584893e+01	4.521799e-17	2.484503e-17	
21	1.621810e+01	4.318270e-17	2.421787e-17	
22	1.659587e+01	4.123904e-17	2.359421e-17	
23	1.698244e+01	3.938286e-17	2.297469e-17	
24	1.737801e+01	3.761024e-17	2.235990e-17	
25	1.778279e+01	3.591741e-17	2.175045e-17	
26	1.819701e+01	3.430077e-17	2.114689e-17	
27	1.862087e+01	3.275690e-17	2.054978e-17	
28	1.905461e+01	3.128253e-17	1.995963e-17	
29	1.949845e+01	2.987452e-17	1.937693e-17	
30	1.995262e+01	2.852988e-17	1.880216e-17	
31	2.041738e+01	2.724577e-17	1.823575e-17	
32	2.089296e+01	2.601946e-17	1.767810e-17	
33	2.137962e+01	2.484835e-17	1.712959e-17	
34	2.187762e+01	2.372995e-17	1.659056e-17	
35	2.238721e+01	2.266189e-17	1.606133e-17	
36	2.290868e+01	2.164190e-17	1.554217e-17	
37	2.344229e+01	2.066782e-17	1.503334e-17	
38	2.398833e+01	1.973759e-17	1.453506e-17	
39	2.454709e+01	1.884923e-17	1.404751e-17	
40	2.511886e+01	1.800085e-17	1.357085e-17	
41	2.570396e+01	1.719065e-17	1.310521e-17	
42	2.630268e+01	1.641693e-17	1.265068e-17	
43	2.691535e+01	1.567803e-17	1.220734e-17	
44	2.754229e+01	1.497238e-17	1.177523e-17	
45	2.818383e+01	1.429850e-17	1.135437e-17	
46	2.884032e+01	1.365495e-17	1.094476e-17	
47	2.951209e+01	1.304036e-17	1.054636e-17	
48	3.019952e+01	1.245344e-17	1.015914e-17	
49	3.090295e+01	1.189293e-17	9.783015e-18	
50	3.162278e+01	1.135765e-17	9.417899e-18	
51	3.235937e+01	1.084646e-17	9.063688e-18	
52	3.311311e+01	1.035828e-17	8.720259e-18	
53	3.388442e+01	9.892077e-18	8.387474e-18	
54	3.467369e+01	9.446854e-18	8.065182e-18	

Index   frequency       inoise_spectrum onoise_spectrum 
--------------------------------------------------------------------------------
55	3.548134e+01	9.021669e-18	7.753222e-18	
56	3.630781e+01	8.615622e-18	7.451418e-18	
57	3.715352e+01	8.227850e-18	7.159588e-18	
58	3.801894e+01	7.857531e-18	6.877539e-18	
59	3.890451e+01	7.503880e-18	6.605072e-18	
60	3.981072e+01	7.166146e-18	6.341981e-18	
61	4.073803e+01	6.843613e-18	6.088056e-18	
62	4.168694e+01	6.535597e-18	5.843080e-18	
63	4.265795e+01	6.241443e-18	5.606835e-18	
64	4.365158e+01	5.960530e-18	5.379099e-18	
65	4.466836e+01	5.692259e-18	5.159650e-18	
66	4.570882e+01	5.436063e-18	4.948264e-18	
67	4.677351e+01	5.191398e-18	4.744717e-18	
68	4.786301e+01	4.957745e-18	4.548783e-18	
69	4.897788e+01	4.734608e-18	4.360241e-18	
70	5.011872e+01	4.521514e-18	4.178868e-18	
71	5.128614e+01	4.318011e-18	4.004445e-18	
72	5.248075e+01	4.123667e-18	3.836754e-18	
73	5.370318e+01	3.938071e-18	3.675581e-18	
74	5.495409e+01	3.760827e-18	3.520713e-18	
75	5.623413e+01	3.591561e-18	3.371944e-18	
76	5.754399e+01	3.429913e-18	3.229067e-18	
77	5.888437e+01	3.275541e-18	3.091883e-18	
78	6.025596e+01	3.128117e-18	2.960195e-18	
79	6.165950e+01	2.987328e-18	2.833810e-18	
80	6.309573e+01	2.852875e-18	2.712541e-18	
81	6.456542e+01	2.724474e-18	2.596204e-18	
82	6.606934e+01	2.601852e-18	2.484620e-18	
83	6.760830e+01	2.484749e-18	2.377615e-18	
84	6.918310e+01	2.372916e-18	2.275019e-18	
85	7.079458e+01	2.266117e-18	2.176668e-18	
86	7.244360e+01	2.164125e-18	2.082401e-18	
87	7.413102e+01	2.066723e-18	1.992063e-18	
88	7.585776e+01	1.973705e-18	1.905503e-18	
89	7.762471e+01	1.884873e-18	1.822576e-18	
90	7.943282e+01	1.800040e-18	1.743139e-18	
91	8.128305e+01	1.719024e-18	1.667056e-18	
92	8.317638e+01	1.641655e-18	1.594195e-18	
93	8.511380e+01	1.567768e-18	1.524428e-18	
94	8.709636e+01	1.497207e-18	1.457631e-18	
95	8.912509e+01	1.429821e-18	1.393685e-18	
96	9.120108e+01	1.365469e-18	1.332474e-18	
97	9.332543e+01	1.304012e-18	1.273888e-18	
98	9.549926e+01	1.245322e-18	1.217820e-18	
99	9.772372e+01	1.189273e-18	1.164166e-18	
100	1.000000e+02	1.135747e-18	1.112827e-18	
101	1.023293e+02	1.084630e-18	1.063708e-18	
102	1.047129e+02	1.035813e-18	1.016716e-18	
103	1.071519e+02	9.891941e-19	9.717622e-19	
104	1.096478e+02	9.446730e-19	9.287623e-19	
105	1.122018e+02	9.021556e-19	8.876339e-19	
106	1.148154e+02	8.615519e-19	8.482983e-19	
107	1.174898e+02	8.227756e-19	8.106798e-19	
108	1.202264e+02	7.857446e-19	7.747058e-19	
109	1.230269e+02	7.503802e-19	7.403063e-19	
110	1.258925e+02	7.166075e-19	7.074144e-19	
111	1.288250e+02	6.843548e-19	6.759658e-19	
112	1.318257e+02	6.535537e-19	6.458986e-19	

Index   frequency       inoise_spectrum onoise_spectrum 
--------------------------------------------------------------------------------
113	1.348963e+02	6.241389e-19	6.171537e-19	
114	1.380384e+02	5.960480e-19	5.896742e-19	
115	1.412538e+02	5.692214e-19	5.634057e-19	
116	1.445440e+02	5.436022e-19	5.382957e-19	
117	1.479108e+02	5.191361e-19	5.142944e-19	
118	1.513561e+02	4.957711e-19	4.913536e-19	
119	1.548817e+02	4.734577e-19	4.694272e-19	
120	1.584893e+02	4.521486e-19	4.484713e-19	
121	1.621810e+02	4.317985e-19	4.284436e-19	
122	1.659587e+02	4.123644e-19	4.093036e-19	
123	1.698244e+02	3.938049e-19	3.910125e-19	
124	1.737801e+02	3.760807e-19	3.735333e-19	
125	1.778279e+02	3.591543e-19	3.568303e-19	
126	1.819701e+02	3.429897e-19	3.408695e-19	
127	1.862087e+02	3.275526e-19	3.256184e-19	
128	1.905461e+02	3.128103e-19	3.110459e-19	
129	1.949845e+02	2.987315e-19	2.971219e-19	
130	1.995262e+02	2.852864e-19	2.838180e-19	
131	2.041738e+02	2.724464e-19	2.711069e-19	
132	2.089296e+02	2.601843e-19	2.589624e-19	
133	2.137962e+02	2.484740e-19	2.473595e-19	
134	2.187762e+02	2.372909e-19	2.362741e-19	
135	2.238721e+02	2.266110e-19	2.256836e-19	
136	2.290868e+02	2.164118e-19	2.155658e-19	
137	2.344229e+02	2.066717e-19	2.059000e-19	
138	2.398833e+02	1.973699e-19	1.966660e-19	
139	2.454709e+02	1.884868e-19	1.878447e-19	
140	2.511886e+02	1.800035e-19	1.794178e-19	
141	2.570396e+02	1.719020e-19	1.713678e-19	
142	2.630268e+02	1.641651e-19	1.636779e-19	
143	2.691535e+02	1.567765e-19	1.563320e-19	
144	2.754229e+02	1.497204e-19	1.493150e-19	
145	2.818383e+02	1.429819e-19	1.426121e-19	
146	2.884032e+02	1.365466e-19	1.362093e-19	
147	2.951209e+02	1.304010e-19	1.300934e-19	
148	3.019952e+02	1.245320e-19	1.242514e-19	
149	3.090295e+02	1.189271e-19	1.186712e-19	
150	3.162278e+02	1.135745e-19	1.133411e-19	
151	3.235937e+02	1.084628e-19	1.082499e-19	
152	3.311311e+02	1.035812e-19	1.033870e-19	
153	3.388442e+02	9.891927e-20	9.874215e-20	
154	3.467369e+02	9.446717e-20	9.430562e-20	
155	3.548134e+02	9.021545e-20	9.006810e-20	
156	3.630781e+02	8.615508e-20	8.602069e-20	
157	3.715352e+02	8.227747e-20	8.215489e-20	
158	3.801894e+02	7.857437e-20	7.846257e-20	
159	3.890451e+02	7.503794e-20	7.493597e-20	
160	3.981072e+02	7.166068e-20	7.156767e-20	
161	4.073803e+02	6.843541e-20	6.835059e-20	
162	4.168694e+02	6.535531e-20	6.527795e-20	
163	4.265795e+02	6.241384e-20	6.234328e-20	
164	4.365158e+02	5.960475e-20	5.954040e-20	
165	4.466836e+02	5.692210e-20	5.686340e-20	
166	4.570882e+02	5.436018e-20	5.430665e-20	
167	4.677351e+02	5.191357e-20	5.186474e-20	
168	4.786301e+02	4.957707e-20	4.953254e-20	
169	4.897788e+02	4.734574e-20	4.730512e-20	
170	5.011872e+02	4.521483e-20	4.517778e-20	

Index   frequency       inoise_spectrum onoise_spectrum 
--------------------------------------------------------------------------------
171	5.128614e+02	4.317983e-20	4.314604e-20	
172	5.248075e+02	4.123641e-20	4.120560e-20	
173	5.370318e+02	3.938047e-20	3.935237e-20	
174	5.495409e+02	3.760806e-20	3.758242e-20	
175	5.623413e+02	3.591541e-20	3.589204e-20	
176	5.754399e+02	3.429895e-20	3.427763e-20	
177	5.888437e+02	3.275525e-20	3.273580e-20	
178	6.025596e+02	3.128102e-20	3.126328e-20	
179	6.165950e+02	2.987314e-20	2.985697e-20	
180	6.309573e+02	2.852863e-20	2.851388e-20	
181	6.456542e+02	2.724463e-20	2.723117e-20	
182	6.606934e+02	2.601842e-20	2.600615e-20	
183	6.760830e+02	2.484740e-20	2.483620e-20	
184	6.918310e+02	2.372908e-20	2.371887e-20	
185	7.079458e+02	2.266109e-20	2.265178e-20	
186	7.244360e+02	2.164118e-20	2.163269e-20	
187	7.413102e+02	2.066716e-20	2.065942e-20	
188	7.585776e+02	1.973699e-20	1.972993e-20	
189	7.762471e+02	1.884868e-20	1.884224e-20	
190	7.943282e+02	1.800035e-20	1.799447e-20	
191	8.128305e+02	1.719020e-20	1.718484e-20	
192	8.317638e+02	1.641651e-20	1.641163e-20	
193	8.511380e+02	1.567765e-20	1.567319e-20	
194	8.709636e+02	1.497204e-20	1.496797e-20	
195	8.912509e+02	1.429818e-20	1.429448e-20	
196	9.120108e+02	1.365466e-20	1.365128e-20	
197	9.332543e+02	1.304010e-20	1.303702e-20	
198	9.549926e+02	1.245320e-20	1.245039e-20	
199	9.772372e+02	1.189271e-20	1.189015e-20	
200	1.000000e+03	1.135745e-20	1.135511e-20	

CPU time since last call: 0.024 seconds.

Total CPU time: 0.024 seconds.

Current dynamic memory usage = 135168,
Dynamic memory limit = -135169.

